! S1P file generated from impedance data
! Reference impedance Z0 = 25 Ohms
# Hz S RI R 25
!
4.000000e+08 7.874132e-01 5.845992e-01
4.010000e+08 7.925781e-01 5.754497e-01
4.020000e+08 7.978153e-01 5.658071e-01
4.030000e+08 8.031210e-01 5.556252e-01
4.040000e+08 8.084895e-01 5.448519e-01
4.050000e+08 8.139129e-01 5.334291e-01
4.060000e+08 8.193798e-01 5.212909e-01
4.070000e+08 8.248748e-01 5.083633e-01
4.080000e+08 8.303773e-01 4.945622e-01
4.090000e+08 8.358599e-01 4.797927e-01
4.100000e+08 8.412867e-01 4.639468e-01
4.110000e+08 8.466105e-01 4.469018e-01
4.120000e+08 8.517697e-01 4.285181e-01
4.130000e+08 8.566841e-01 4.086365e-01
4.140000e+08 8.612492e-01 3.870761e-01
4.150000e+08 8.653289e-01 3.636312e-01
4.160000e+08 8.687455e-01 3.380688e-01
4.170000e+08 8.712673e-01 3.101267e-01
4.180000e+08 8.725910e-01 2.795126e-01
4.190000e+08 8.723198e-01 2.459055e-01
4.200000e+08 8.699334e-01 2.089624e-01
4.210000e+08 8.647507e-01 1.683316e-01
4.220000e+08 8.558806e-01 1.236805e-01
4.230000e+08 8.421643e-01 7.474401e-02
4.240000e+08 8.221078e-01 2.140867e-02
4.250000e+08 7.938170e-01 -3.615168e-02
4.260000e+08 7.549561e-01 -9.726371e-02
4.270000e+08 7.027772e-01 -1.604447e-01
4.280000e+08 6.343049e-01 -2.229903e-01
4.290000e+08 5.468038e-01 -2.805117e-01
4.300000e+08 4.386685e-01 -3.265988e-01
4.310000e+08 3.107791e-01 -3.529688e-01
4.320000e+08 1.680338e-01 -3.506021e-01
4.330000e+08 2.022504e-02 -3.121644e-01
4.340000e+08 -1.189121e-01 -2.351725e-01
4.350000e+08 -2.349971e-01 -1.242234e-01
4.360000e+08 -3.174134e-01 9.545363e-03
4.370000e+08 -3.623066e-01 1.518929e-01
4.380000e+08 -3.725396e-01 2.897760e-01
4.390000e+08 -3.552357e-01 4.141700e-01
4.400000e+08 -3.188034e-01 5.206275e-01
4.410000e+08 -2.708410e-01 6.083079e-01
4.420000e+08 -2.172227e-01 6.785612e-01
4.430000e+08 -1.620202e-01 7.337388e-01
4.440000e+08 -1.078132e-01 7.764260e-01
4.450000e+08 -5.609157e-02 8.090378e-01
4.460000e+08 -7.611202e-03 8.336544e-01
4.470000e+08 3.733757e-02 8.519870e-01
4.480000e+08 7.874379e-02 8.654067e-01
4.490000e+08 1.167537e-01 8.749948e-01
4.500000e+08 1.515937e-01 8.815969e-01
4.510000e+08 1.835237e-01 8.858717e-01
4.520000e+08 2.128095e-01 8.883315e-01
4.530000e+08 2.397075e-01 8.893752e-01
4.540000e+08 2.644571e-01 8.893136e-01
4.550000e+08 2.872768e-01 8.883899e-01
4.560000e+08 3.083640e-01 8.867945e-01
4.570000e+08 3.278952e-01 8.846772e-01
4.580000e+08 3.460278e-01 8.821561e-01
4.590000e+08 3.629012e-01 8.793246e-01
4.600000e+08 3.786393e-01 8.762568e-01
4.610000e+08 3.933516e-01 8.730114e-01
4.620000e+08 4.071356e-01 8.696352e-01
4.630000e+08 4.200773e-01 8.661655e-01
4.640000e+08 4.322535e-01 8.626321e-01
4.650000e+08 4.437324e-01 8.590586e-01
4.660000e+08 4.545748e-01 8.554639e-01
