! S1P file generated from impedance data
! Reference impedance Z0 = 50 Ohms
# Hz S RI R 50
!
4.000000e+08 -5.097214e-02 9.786678e-01
4.010000e+08 -3.917549e-02 9.777356e-01
4.020000e+08 -2.681684e-02 9.765257e-01
4.030000e+08 -1.384726e-02 9.749966e-01
4.040000e+08 -2.126200e-04 9.730988e-01
4.050000e+08 1.414689e-02 9.707740e-01
4.060000e+08 2.929734e-02 9.679527e-01
4.070000e+08 4.531159e-02 9.645515e-01
4.080000e+08 6.226978e-02 9.604706e-01
4.090000e+08 8.025963e-02 9.555894e-01
4.100000e+08 9.937657e-02 9.497615e-01
4.110000e+08 1.197233e-01 9.428092e-01
4.120000e+08 1.414088e-01 9.345146e-01
4.130000e+08 1.645457e-01 9.246106e-01
4.140000e+08 1.892460e-01 9.127674e-01
4.150000e+08 2.156140e-01 8.985771e-01
4.160000e+08 2.437332e-01 8.815338e-01
4.170000e+08 2.736467e-01 8.610088e-01
4.180000e+08 3.053254e-01 8.362226e-01
4.190000e+08 3.386186e-01 8.062118e-01
4.200000e+08 3.731772e-01 7.697976e-01
4.210000e+08 4.083398e-01 7.255629e-01
4.220000e+08 4.429640e-01 6.718577e-01
4.230000e+08 4.751936e-01 6.068684e-01
4.240000e+08 5.021592e-01 5.288142e-01
4.250000e+08 5.196547e-01 4.363658e-01
4.260000e+08 5.219226e-01 3.294024e-01
4.270000e+08 5.018348e-01 2.101608e-01
4.280000e+08 4.519201e-01 8.459343e-02
4.290000e+08 3.666317e-01 -3.675871e-02
4.300000e+08 2.455742e-01 -1.395921e-01
4.310000e+08 9.609118e-02 -2.092949e-01
4.320000e+08 -6.716424e-02 -2.361306e-01
4.330000e+08 -2.265203e-01 -2.190755e-01
4.340000e+08 -3.670871e-01 -1.655764e-01
4.350000e+08 -4.804561e-01 -8.771104e-02
4.360000e+08 -5.648527e-01 2.299136e-03
4.370000e+08 -6.230055e-01 9.487384e-02
4.380000e+08 -6.596729e-01 1.838080e-01
4.390000e+08 -6.798937e-01 2.657727e-01
4.400000e+08 -6.881008e-01 3.394357e-01
4.410000e+08 -6.878346e-01 4.046680e-01
4.420000e+08 -6.817679e-01 4.619757e-01
4.430000e+08 -6.718490e-01 5.121443e-01
4.440000e+08 -6.594667e-01 5.560362e-01
4.450000e+08 -6.455956e-01 5.944858e-01
4.460000e+08 -6.309110e-01 6.282519e-01
4.470000e+08 -6.158762e-01 6.580013e-01
4.480000e+08 -6.008042e-01 6.843083e-01
4.490000e+08 -5.859032e-01 7.076624e-01
4.500000e+08 -5.713080e-01 7.284784e-01
4.510000e+08 -5.571026e-01 7.471064e-01
4.520000e+08 -5.433356e-01 7.638421e-01
4.530000e+08 -5.300311e-01 7.789355e-01
4.540000e+08 -5.171969e-01 7.925982e-01
4.550000e+08 -5.048295e-01 8.050098e-01
4.560000e+08 -4.929181e-01 8.163234e-01
4.570000e+08 -4.814471e-01 8.266698e-01
4.580000e+08 -4.703982e-01 8.361609e-01
4.590000e+08 -4.597517e-01 8.448932e-01
4.600000e+08 -4.494869e-01 8.529499e-01
4.610000e+08 -4.395835e-01 8.604032e-01
4.620000e+08 -4.300214e-01 8.673157e-01
4.630000e+08 -4.207811e-01 8.737420e-01
4.640000e+08 -4.118440e-01 8.797301e-01
4.650000e+08 -4.031925e-01 8.853218e-01
4.660000e+08 -3.948099e-01 8.905543e-01
