!Keysight Technologies,P9374A,MY57213671,A.19.10.09
!Date: Friday, August 01, 2025 14:39:23
!Correction: S11(C  2-Port  ) 
!S1P File: Measurement: S11:
# Hz S  dB   R 50
300000 -0.029370686 -179.36349
10299700 -0.08060129 176.38135
20299400 -0.15228902 172.71407
30299100 -0.10560044 169.84407
40298800 -0.13015826 166.55608
50298500 -0.13694558 163.34584
60298200 -0.1442166 160.03574
70297900 -0.15757994 156.87683
80297600 -0.14870764 153.81819
90297300 -0.16243066 150.52698
100297000 -0.18011539 147.43846
110296700 -0.1652505 144.23276
120296400 -0.1829848 141.26942
130296100 -0.19375086 138.17369
140295800 -0.18499216 135.21739
150295500 -0.18984199 132.18854
160295200 -0.20756015 129.13812
170294900 -0.18417755 126.41369
180294600 -0.21048091 123.4855
190294300 -0.22050324 120.67825
200294000 -0.20856711 117.63473
210293700 -0.2290231 114.88604
220293400 -0.21492817 112.08574
230293100 -0.2577396 109.32584
240292800 -0.24360828 106.79653
250292500 -0.24912903 104.06701
260292200 -0.2576344 101.29676
270291900 -0.33804843 98.663383
280291600 -0.44200495 96.696953
290291300 -0.33429801 94.975471
300291000 -0.27995813 92.255096
310290700 -0.23407371 89.679276
320290400 -0.23853427 87.089554
330290100 -0.23737761 84.505592
340289800 -0.22638027 81.967064
350289500 -0.25107068 79.488838
360289200 -0.28250474 76.958221
370288900 -0.31882527 74.365768
380288600 -0.37850794 72.035614
390288300 -0.49226782 69.573441
400288000 -0.62041855 67.900307
410287700 -0.67186671 66.733711
420287400 -0.69162697 65.559708
430287100 -0.60149473 64.055901
440286800 -0.52158761 62.343243
450286500 -0.46472141 60.286255
460286200 -0.41031167 58.30518
470285900 -0.34292102 56.162674
480285600 -0.31122702 54.032902
490285300 -0.28470847 51.876511
500285000 -0.27630636 49.671814
510284700 -0.2615886 47.464993
520284400 -0.25396457 45.331985
530284100 -0.27480674 43.143356
540283800 -0.29449651 41.155914
550283500 -0.29852325 39.140476
560283200 -0.29379046 37.078285
570282900 -0.31082466 35.010014
580282600 -0.32908013 32.895634
590282300 -0.37820038 30.987694
600282000 -0.38644195 29.119753
610281700 -0.38079625 27.189056
620281400 -0.39120802 25.235826
630281100 -0.37148106 23.351553
640280800 -0.33464554 21.119158
650280500 -0.31931785 18.847208
660280200 -0.32128388 16.437489
670279900 -0.32549176 14.00584
680279600 -0.32453039 11.43465
690279300 -0.32522002 8.672822
700279000 -0.35548586 5.7582531
710278700 -0.36944228 2.7852561
720278400 -0.43600842 -0.58035839
730278100 -0.50482535 -4.0724339
740277800 -0.59418017 -7.8163795
750277500 -0.73981655 -12.01929
760277200 -0.94395459 -16.620539
770276900 -1.2517716 -21.475319
780276600 -1.5706613 -26.424105
790276300 -2.0716689 -32.852177
800276000 -2.7294214 -38.890949
810275700 -3.5977907 -45.301937
820275400 -4.794692 -52.878201
830275100 -6.5006838 -60.48933
840274800 -8.7419996 -68.511642
850274500 -11.955583 -73.006027
860274200 -17.331112 -80.189583
870273900 -32.376881 -12.310513
880273600 -19.240786 54.133606
890273300 -14.637882 49.583771
900273000 -12.294969 49.509193
910272700 -10.712883 47.149124
920272400 -9.6621218 47.670902
930272100 -8.889307 48.933525
940271800 -7.369226 50.302792
950271500 -6.099031 46.810661
960271200 -5.2718844 44.464539
970270900 -4.4530239 41.356922
980270600 -3.6867793 37.05077
990270300 -3.3237498 32.963383
1000270000 -2.9966552 29.364326
1010269700 -2.6441426 26.402534
1020269400 -2.4261618 23.147844
1030269100 -2.2155852 20.356937
1040268800 -2.0732746 17.278753
1050268500 -1.9569287 14.809983
1060268200 -1.8730204 12.77292
1070267900 -1.6739714 10.595299
1080267600 -1.6237096 8.0997009
1090267300 -1.5393004 6.3894033
1100267000 -1.4261503 4.2491865
1110266700 -1.3383619 2.2951787
1120266400 -1.233843 0.29003254
1130266100 -1.1793745 -1.7546487
1140265800 -1.133834 -3.8519428
1150265500 -1.1175776 -5.5991879
1160265200 -1.0328996 -7.3878102
1170264900 -0.95392412 -9.5963173
1180264600 -0.9883939 -11.523112
1190264300 -0.98542172 -12.987463
1200264000 -0.9173072 -14.899207
1210263700 -0.9254294 -16.708084
1220263400 -0.92143506 -18.466982
1230263100 -0.89657599 -20.02787
1240262800 -0.8808344 -21.635221
1250262500 -0.85639197 -23.303446
1260262200 -0.85079896 -24.884493
1270261900 -0.81798744 -26.789717
1280261600 -0.82202947 -28.356892
1290261300 -0.82479954 -30.299109
1300261000 -0.82497388 -31.83276
1310260700 -0.82260627 -33.666935
1320260400 -0.83782893 -35.402466
1330260100 -0.85895634 -37.110958
1340259800 -0.86152089 -38.821815
1350259500 -0.85252261 -40.494766
1360259200 -0.87159383 -42.521179
1370258900 -0.90953237 -44.532921
1380258600 -0.94030666 -46.241028
1390258300 -0.966986 -48.146362
1400258000 -1.0361944 -50.108513
1410257700 -1.0930904 -51.985233
1420257400 -1.1647077 -53.9911
1430257100 -1.2377071 -55.936119
1440256800 -1.3173836 -58.090992
1450256500 -1.4652438 -60.61858
1460256200 -1.6602298 -62.250401
1470255900 -1.7706399 -63.891243
1480255600 -1.9018167 -65.853432
1490255300 -2.049459 -67.804474
1500255000 -2.2440488 -70.061852
1510254700 -2.421356 -71.725456
1520254400 -2.6436987 -73.8843
1530254100 -2.9093332 -75.683807
1540253800 -3.1972859 -77.624779
1550253500 -3.622391 -78.960251
1560253200 -3.8677249 -79.66362
1570252900 -4.1844788 -80.994987
1580252600 -4.4950943 -82.23407
1590252300 -4.9842281 -83.215622
1600252000 -5.3528585 -81.417068
1610251700 -5.5239182 -81.941177
1620251400 -5.6624794 -82.31649
1630251100 -5.9248657 -84.062462
1640250800 -6.4373326 -83.820961
1650250500 -6.6373014 -84.576851
1660250200 -7.0678 -83.504791
1670249900 -7.2798138 -82.829971
1680249600 -7.5369205 -82.322906
1690249300 -7.732779 -81.754257
1700249000 -8.0502739 -81.924469
1710248700 -8.393096 -82.0317
1720248400 -8.8323193 -80.116402
1730248100 -9.2882462 -77.682915
1740247800 -9.3321772 -74.335213
1750247500 -9.2896624 -72.734535
1760247200 -9.3993311 -73.007439
1770246900 -9.7211008 -70.810707
1780246600 -9.8353758 -68.712456
1790246300 -10.206512 -66.258316
1800246000 -10.143048 -61.892941
1810245700 -10.094117 -59.029713
1820245400 -9.8743982 -55.718697
1830245100 -9.316124 -53.121204
1840244800 -9.0679283 -53.496525
1850244500 -8.8438215 -51.448463
1860244200 -8.450532 -50.150482
1870243900 -8.3214941 -50.430473
1880243600 -8.0161438 -48.793789
1890243300 -7.7000976 -48.571346
1900243000 -7.4182768 -47.235569
1910242700 -7.0609837 -47.099094
1920242400 -6.8154955 -47.316246
1930242100 -6.5639367 -47.308266
1940241800 -6.3395562 -47.813641
1950241500 -6.0503955 -48.04739
1960241200 -5.8122344 -48.809544
1970240900 -5.6409202 -49.182663
1980240600 -5.4135976 -50.091488
1990240300 -5.2653675 -50.210129
2000240000 -5.0081048 -50.76416
2010239700 -4.7986302 -51.131542
2020239400 -4.5166893 -52.103481
2030239100 -4.3690405 -53.347248
2040238800 -4.1947384 -53.963554
2050238500 -4.080308 -54.665653
2060238200 -3.8284433 -54.674271
2070237900 -3.5598602 -56.189774
2080237600 -3.4397354 -57.244907
2090237300 -3.2851748 -58.619923
2100237000 -3.1948466 -60.013302
2110236700 -3.0752084 -61.148022
2120236400 -3.0374198 -62.12635
2130236100 -2.8892429 -63.148132
2140235800 -2.8642964 -64.253868
2150235500 -2.7385428 -65.352005
2160235200 -2.669364 -66.225372
2170234900 -2.5789464 -67.233551
2180234600 -2.4970982 -68.109123
2190234300 -2.4306219 -69.09288
2200234000 -2.3385799 -69.73172
2210233700 -2.2504573 -70.728378
2220233400 -2.174361 -71.6231
2230233100 -2.1070828 -72.675102
2240232800 -2.0420656 -73.577751
2250232500 -1.9871305 -74.540604
2260232200 -1.9510746 -75.534454
2270231900 -1.8944261 -76.629951
2280231600 -1.8729547 -77.545609
2290231300 -1.7982312 -78.390846
2300231000 -1.7560918 -79.36599
2310230700 -1.6973283 -80.412697
2320230400 -1.688683 -81.418495
2330230100 -1.6355059 -82.372215
2340229800 -1.6389273 -83.198372
2350229500 -1.5908492 -84.182114
2360229200 -1.5555804 -84.900345
2370228900 -1.5353199 -85.717499
2380228600 -1.5251001 -86.626411
2390228300 -1.4935465 -87.353172
2400228000 -1.4727862 -88.105553
2410227700 -1.4636568 -89.184303
2420227400 -1.4603134 -89.913429
2430227100 -1.4645612 -90.813164
2440226800 -1.457611 -91.578117
2450226500 -1.4636452 -92.444199
2460226200 -1.4663576 -93.237396
2470225900 -1.4345441 -93.837608
2480225600 -1.4340122 -94.612579
2490225300 -1.4280078 -95.373718
2500225000 -1.4271469 -95.996277
2510224700 -1.3808178 -96.736191
2520224400 -1.3751239 -97.379555
2530224100 -1.3859621 -97.992218
2540223800 -1.395381 -98.659798
2550223500 -1.4000877 -99.373497
2560223200 -1.4245962 -99.987198
2570222900 -1.4118406 -100.82612
2580222600 -1.4296646 -101.49886
2590222300 -1.4689664 -102.01764
2600222000 -1.4871778 -102.57922
2610221700 -1.4995654 -103.1011
2620221400 -1.5095911 -103.69302
2630221100 -1.4854429 -104.29266
2640220800 -1.5087292 -104.86423
2650220500 -1.4861937 -105.39343
2660220200 -1.4921709 -105.80344
2670219900 -1.4636852 -106.30324
2680219600 -1.4775871 -106.76987
2690219300 -1.4653484 -107.28866
2700219000 -1.4919378 -107.72576
2710218700 -1.4811622 -108.17864
2720218400 -1.4905295 -108.64021
2730218100 -1.4786462 -109.0691
2740217800 -1.4918925 -109.76286
2750217500 -1.4919804 -110.16831
2760217200 -1.5035374 -110.65038
2770216900 -1.4984771 -111.06715
2780216600 -1.498211 -111.66025
2790216300 -1.4751323 -112.23767
2800216000 -1.4838316 -112.65777
2810215700 -1.4816741 -113.20626
2820215400 -1.4450499 -113.61736
2830215100 -1.4343392 -114.09648
2840214800 -1.4558179 -114.66022
2850214500 -1.4202341 -115.11598
2860214200 -1.4229704 -115.49614
2870213900 -1.4138637 -115.98331
2880213600 -1.4113737 -116.47675
2890213300 -1.4123427 -117.09389
2900213000 -1.4353323 -117.65512
2910212700 -1.4304681 -118.01749
2920212400 -1.4001707 -118.76422
2930212100 -1.4156356 -119.23994
2940211800 -1.4160922 -119.8859
2950211500 -1.4312382 -120.33001
2960211200 -1.3913722 -120.98203
2970210900 -1.4092197 -121.58926
2980210600 -1.404326 -122.24715
2990210300 -1.4090979 -122.83633
3000210000 -1.413801 -123.35918
3010209700 -1.4281441 -123.76611
3020209400 -1.4392492 -124.29468
3030209100 -1.4530321 -124.85152
3040208800 -1.4697514 -125.64754
3050208500 -1.5243524 -125.95794
3060208200 -1.5316215 -126.56396
3070207900 -1.551326 -127.06869
3080207600 -1.6109573 -127.81658
3090207300 -1.645101 -128.26947
3100207000 -1.663572 -128.7682
3110206700 -1.7072181 -129.56482
3120206400 -1.7109412 -130.14053
3130206100 -1.7727321 -130.64798
3140205800 -1.8091749 -131.04393
3150205500 -1.8441751 -131.40894
3160205200 -1.905459 -131.80013
3170204900 -1.9269618 -131.89084
3180204600 -1.957166 -132.22195
3190204300 -1.9917679 -132.58498
3200204000 -2.0181568 -132.58458
3210203700 -2.0335274 -132.90755
3220203400 -2.0417299 -133.45314
3230203100 -2.0572772 -133.91766
3240202800 -2.0702276 -134.36052
3250202500 -2.1200426 -134.94839
3260202200 -2.1524377 -135.55597
3270201900 -2.182524 -135.95764
3280201600 -2.2032354 -136.47704
3290201300 -2.2267208 -137.16513
3300201000 -2.2506282 -137.47614
3310200700 -2.2672663 -138.07565
3320200400 -2.3111651 -138.51215
3330200100 -2.360013 -138.9257
3340199800 -2.4009852 -139.19102
3350199500 -2.4402139 -139.7095
3360199200 -2.5096757 -140.19699
3370198900 -2.5876741 -140.65646
3380198600 -2.672626 -140.94
3390198300 -2.7325411 -141.07985
3400198000 -2.7815008 -141.54276
3410197700 -2.8466275 -141.77164
3420197400 -2.89469 -142.24493
3430197100 -2.949506 -142.6015
3440196800 -2.9962001 -143.24509
3450196500 -3.0416472 -143.6433
3460196200 -3.1235812 -144.31453
3470195900 -3.2157829 -144.46103
3480195600 -3.3072917 -144.56091
3490195300 -3.3821006 -144.75577
3500195000 -3.4684834 -144.9695
3510194700 -3.5703602 -144.69643
3520194400 -3.6556847 -144.54184
3530194100 -3.7006147 -144.63071
3540193800 -3.8404162 -144.62354
3550193500 -3.9276385 -144.36453
3560193200 -3.9919701 -144.19835
3570192900 -4.0590053 -144.13892
3580192600 -4.1130495 -143.95427
3590192300 -4.1697645 -143.54594
3600192000 -4.1546121 -143.33208
3610191700 -4.1872406 -142.8869
3620191400 -4.1251483 -142.49574
3630191100 -4.0842819 -142.31476
3640190800 -4.0239711 -142.21126
3650190500 -3.9576609 -141.97881
3660190200 -3.9027786 -142.24318
3670189900 -3.905874 -142.18079
3680189600 -3.8814409 -142.08102
3690189300 -3.8346176 -142.23059
3700189000 -3.8267293 -142.19197
3710188700 -3.8032904 -142.36374
3720188400 -3.7745113 -142.57794
3730188100 -3.7387931 -142.72948
3740187800 -3.6584525 -142.92941
3750187500 -3.5835593 -143.70709
3760187200 -3.5317349 -144.38992
3770186900 -3.5148139 -145.07217
3780186600 -3.478286 -145.21538
3790186300 -3.4248507 -146.04601
3800186000 -3.3870254 -146.22678
3810185700 -3.2569888 -146.27513
3820185400 -3.1868091 -147.14996
3830185100 -3.1235795 -147.65704
3840184800 -2.9971676 -148.19888
3850184500 -2.9749205 -149.3407
3860184200 -2.9488971 -150.49527
3870183900 -2.9414701 -151.34433
3880183600 -2.9388604 -152.55608
3890183300 -2.9501433 -153.64723
3900183000 -2.935833 -154.55606
3910182700 -2.9541073 -156.1013
3920182400 -2.9332666 -157.06004
3930182100 -2.9295604 -158.63577
3940181800 -2.980484 -159.94295
3950181500 -3.0086968 -161.22191
3960181200 -3.0603724 -162.60707
3970180900 -3.1339793 -163.66249
3980180600 -3.22644 -164.71538
3990180300 -3.2658429 -165.27545
4000180000 -3.3603845 -166.20685
4010179700 -3.415539 -167.27917
4020179400 -3.5164337 -168.14211
4030179100 -3.5769508 -169.18625
4040178800 -3.644285 -170.31477
4050178500 -3.7536356 -171.42091
4060178200 -3.8436632 -172.66331
4070177900 -3.9747751 -174.15714
4080177600 -4.0942359 -175.06848
4090177300 -4.1827259 -176.24486
4100177000 -4.3014627 -177.20352
4110176700 -4.3462224 -178.06493
4120176400 -4.4718652 -178.96288
4130176100 -4.5326333 -179.68222
4140175800 -4.5849128 179.11292
4150175500 -4.768939 178.36681
4160175200 -4.8069057 177.88116
4170174900 -4.9188848 176.76918
4180174600 -4.9934402 175.71278
4190174300 -5.1065412 174.72072
4200174000 -5.1800413 173.68019
4210173700 -5.3877711 172.18221
4220173400 -5.4945855 171.45573
4230173100 -5.5571437 170.08636
4240172800 -5.7012806 168.85535
4250172500 -5.7956262 167.68121
4260172200 -5.8827739 166.20264
4270171900 -6.0297441 165.15224
4280171600 -6.1251407 164.36786
4290171300 -6.1999936 162.77977
4300171000 -6.3090405 161.77966
4310170700 -6.458734 160.60925
4320170400 -6.6028399 159.89796
4330170100 -6.7450304 158.92296
4340169800 -6.8806849 157.78802
4350169500 -7.0137753 156.88779
4360169200 -7.1565347 155.55298
4370168900 -7.2923322 154.43864
4380168600 -7.3892517 153.0835
4390168300 -7.5051913 151.28026
4400168000 -7.6715355 149.75972
4410167700 -7.7793694 148.2249
4420167400 -7.9540443 146.40164
4430167100 -8.1029282 145.26929
4440166800 -8.244153 144.19829
4450166500 -8.2982864 143.12798
4460166200 -8.3877573 141.74077
4470165900 -8.4991474 140.56561
4480165600 -8.6950483 139.05441
4490165300 -8.7600956 137.66553
4500165000 -8.9379826 136.14046
4510164700 -9.1574316 134.30728
4520164400 -9.3977995 132.88556
4530164100 -9.6560268 132.02156
4540163800 -9.7439623 131.00522
4550163500 -9.9143744 129.37064
4560163200 -10.00339 128.03842
4570162900 -10.06576 126.80061
4580162600 -10.106963 124.64133
4590162300 -10.149782 123.04269
4600162000 -10.27389 121.11488
4610161700 -10.492137 119.40642
4620161400 -10.619378 118.66294
4630161100 -10.64457 117.49923
4640160800 -10.75698 115.56042
4650160500 -11.010401 114.27346
4660160200 -11.048484 112.92029
4670159900 -11.285349 110.67605
4680159600 -11.649199 110.06068
4690159300 -11.735935 109.00382
4700159000 -11.96441 107.71755
4710158700 -12.101672 106.82141
4720158400 -12.169044 106.02274
4730158100 -12.110589 105.05453
4740157800 -12.304081 102.85921
4750157500 -12.324137 102.11928
4760157200 -12.403682 100.9715
4770156900 -12.515397 100.26725
4780156600 -12.519393 100.11192
4790156300 -12.474289 98.970146
4800156000 -12.597616 98.190361
4810155700 -12.629786 97.812073
4820155400 -12.663593 96.623497
4830155100 -12.698885 95.389359
4840154800 -12.941982 94.302849
4850154500 -13.100002 93.825829
4860154200 -13.209219 93.90551
4870153900 -13.091385 93.27253
4880153600 -13.188944 91.415466
4890153300 -13.289182 90.609688
4900153000 -13.31107 90.827629
4910152700 -13.328644 89.843765
4920152400 -13.499661 90.534218
4930152100 -13.364152 90.46566
4940151800 -13.303305 91.495384
4950151500 -13.166714 91.20472
4960151200 -13.268336 91.000443
4970150900 -13.282751 92.964958
4980150600 -13.086744 93.684158
4990150300 -12.892391 93.691246
5000150000 -12.779813 94.241432
5010149700 -12.638234 93.439636
5020149400 -12.500773 93.245094
5030149100 -12.352661 92.900017
5040148800 -12.138311 92.684624
5050148500 -12.008982 91.323593
5060148200 -11.961088 90.877937
5070147900 -11.82614 90.324196
5080147600 -11.767323 90.737717
5090147300 -11.532553 90.834854
5100147000 -11.409211 90.559563
5110146700 -11.198743 91.331436
5120146400 -10.900779 91.010567
5130146100 -10.714402 90.865768
5140145800 -10.479204 90.194992
5150145500 -10.290611 89.392708
5160145200 -10.214109 88.397469
5170144900 -10.149141 87.561096
5180144600 -10.123565 87.238564
5190144300 -9.9960222 86.736244
5200144000 -9.948041 86.074013
5210143700 -9.8371696 86.412239
5220143400 -9.6876621 85.761826
5230143100 -9.5874252 85.666122
5240142800 -9.418786 85.229523
5250142500 -9.2006474 84.963577
5260142200 -9.1250153 84.498863
5270141900 -8.9101963 84.344002
5280141600 -8.794054 83.753014
5290141300 -8.605114 83.621086
5300141000 -8.4837599 82.260201
5310140700 -8.4471674 82.191315
5320140400 -8.3891821 81.701286
5330140100 -8.3079748 81.384819
5340139800 -8.2432737 81.704079
5350139500 -8.1476574 80.989479
5360139200 -8.0855083 80.79229
5370138900 -7.987855 80.687416
5380138600 -7.8824191 80.494225
5390138300 -7.7454581 80.152832
5400138000 -7.5737724 79.748856
5410137700 -7.4985008 79.173187
5420137400 -7.42558 78.941719
5430137100 -7.2759762 78.686287
5440136800 -7.1797419 78.350128
5450136500 -7.0753989 77.988106
5460136200 -6.9975276 77.633446
5470135900 -6.8888826 77.610672
5480135600 -6.7779651 76.878426
5490135300 -6.7501326 76.546143
5500135000 -6.6873379 76.481232
5510134700 -6.6214261 76.172752
5520134400 -6.5363879 75.988632
5530134100 -6.4697771 75.609367
5540133800 -6.3999319 75.433304
5550133500 -6.3002028 74.960548
5560133200 -6.2590041 74.242271
5570132900 -6.2117887 74.035263
5580132600 -6.1675358 73.672234
5590132300 -6.1383557 73.362465
5600132000 -6.1151452 73.387009
5610131700 -6.0771317 73.491592
5620131400 -6.0038114 73.409508
5630131100 -5.9703002 73.714211
5640130800 -5.855082 73.712341
5650130500 -5.7649336 73.756859
5660130200 -5.6963916 73.837402
5670129900 -5.5601163 73.359482
5680129600 -5.4882717 73.096588
5690129300 -5.4572062 72.554283
5700129000 -5.4390917 72.234177
5710128700 -5.3831325 72.286667
5720128400 -5.3355842 72.002083
5730128100 -5.2691503 71.792374
5740127800 -5.2291632 71.3358
5750127500 -5.1692805 71.271248
5760127200 -5.1343265 70.92955
5770126900 -5.128602 70.739372
5780126600 -5.0334573 70.794136
5790126300 -4.9788089 70.482277
5800126000 -4.9127388 70.09935
5810125700 -4.9172049 69.717155
5820125400 -4.9460998 69.46283
5830125100 -4.9283805 69.394882
5840124800 -4.9332242 69.124367
5850124500 -4.9738421 69.191132
5860124200 -4.9568696 69.105003
5870123900 -4.9615536 69.150963
5880123600 -4.9572573 69.08992
5890123300 -4.9210415 69.13736
5900123000 -4.906323 68.892204
5910122700 -4.9146938 68.793663
5920122400 -4.921576 68.632851
5930122100 -4.927948 68.784981
5940121800 -4.9098301 68.815491
5950121500 -4.8983083 68.753998
5960121200 -4.9123869 68.70665
5970120900 -4.8983402 68.859482
5980120600 -4.9045382 68.717094
5990120300 -4.957078 68.840805
6000120000 -4.9699411 69.306252
6010119700 -4.9693522 69.553955
6020119400 -4.9603901 69.641579
6030119100 -4.962431 69.902687
6040118800 -4.9388361 70.11557
6050118500 -4.9530334 70.261108
6060118200 -4.9656119 70.405731
6070117900 -4.9624648 70.716202
6080117600 -4.9682088 70.789314
6090117300 -4.9659472 70.9151
6100117000 -4.9823513 71.087341
6110116700 -4.9785833 71.464699
6120116400 -4.9739814 71.880188
6130116100 -4.9549155 72.214119
