#Parameters = {B=55; Cut=0.5; D_M=8.1; Feed=35.7; Feed_real=-8.2; Groudmax=0; LPiste=5.4; Largeur=27; TermA=92; Zmax=0.152; Zmin=0}
#"Frequency / MHz"	"S1,1 [Mag]"	"S1,1 [Pha / deg]"	"Ref.Imp. [Mag]"	"Ref.Imp. [Pha / deg]"
#-----------------------------------------------------------------------------------------
700.00000000000	0.93094073282242	34.718565876351	50.000000000000	0.0000000000000
700.40002441406	0.93061181300388	34.600382488773	50.000000000000	0.0000000000000
700.79998779297	0.93027481148787	34.481859501990	50.000000000000	0.0000000000000
701.20001220703	0.92992984121734	34.362993913620	50.000000000000	0.0000000000000
701.59997558594	0.92957677107990	34.243806330994	50.000000000000	0.0000000000000
702.00000000000	0.92921571208191	34.124293740278	50.000000000000	0.0000000000000
702.40002441406	0.92884661231491	34.004477684879	50.000000000000	0.0000000000000
702.79998779297	0.92846938206623	33.884350114407	50.000000000000	0.0000000000000
703.20001220703	0.92808409843160	33.763931458486	50.000000000000	0.0000000000000
703.59997558594	0.92769081926822	33.643220755601	50.000000000000	0.0000000000000
704.00000000000	0.92728935390205	33.522227220257	50.000000000000	0.0000000000000
704.40002441406	0.92687984047805	33.400964151977	50.000000000000	0.0000000000000
704.79998779297	0.92646225156262	33.279429516687	50.000000000000	0.0000000000000
705.20001220703	0.92603660768224	33.157632520893	50.000000000000	0.0000000000000
705.59997558594	0.92560297783923	33.035580367057	50.000000000000	0.0000000000000
706.00000000000	0.92516122966236	32.913288311006	50.000000000000	0.0000000000000
706.40002441406	0.92471151463134	32.790751338677	50.000000000000	0.0000000000000
706.79998779297	0.92425379814446	32.667980681538	50.000000000000	0.0000000000000
707.20001220703	0.92378814429783	32.544983579286	50.000000000000	0.0000000000000
707.59997558594	0.92331451769218	32.421764602861	50.000000000000	0.0000000000000
708.00000000000	0.92283289797504	32.298329860932	50.000000000000	0.0000000000000
708.40002441406	0.92234354485151	32.174685395997	50.000000000000	0.0000000000000
708.79998779297	0.92184632199834	32.050833086886	50.000000000000	0.0000000000000
709.20001220703	0.92134128171272	31.926793603418	50.000000000000	0.0000000000000
709.59997558594	0.92082842449186	31.802554640886	50.000000000000	0.0000000000000
710.00000000000	0.92030786995736	31.678129856619	50.000000000000	0.0000000000000
710.40002441406	0.91977965759051	31.553525079469	50.000000000000	0.0000000000000
710.79998779297	0.91924376364379	31.428739819796	50.000000000000	0.0000000000000
711.20001220703	0.91870027257655	31.303784677625	50.000000000000	0.0000000000000
711.59997558594	0.91814932281029	31.178661686796	50.000000000000	0.0000000000000
712.00000000000	0.91759083260149	31.053379034891	50.000000000000	0.0000000000000
712.40002441406	0.91702495395951	30.927940411703	50.000000000000	0.0000000000000
712.79998779297	0.91645162889652	30.802342202210	50.000000000000	0.0000000000000
713.20001220703	0.91587088525983	30.676597073647	50.000000000000	0.0000000000000
713.59997558594	0.91528304169365	30.550704744046	50.000000000000	0.0000000000000
714.00000000000	0.91468802666015	30.424675111985	50.000000000000	0.0000000000000
714.40002441406	0.91408572823231	30.298506490752	50.000000000000	0.0000000000000
714.79998779297	0.91347641194606	30.172200651532	50.000000000000	0.0000000000000
715.20001220703	0.91286009168313	30.045762143201	50.000000000000	0.0000000000000
715.59997558594	0.91223672877461	29.919197393218	50.000000000000	0.0000000000000
716.00000000000	0.91160657164629	29.792506761176	50.000000000000	0.0000000000000
716.40002441406	0.91096955045798	29.665693500373	50.000000000000	0.0000000000000
716.79998779297	0.91032566121746	29.538760609050	50.000000000000	0.0000000000000
717.20001220703	0.90967519476472	29.411713520805	50.000000000000	0.0000000000000
717.59997558594	0.90901805804138	29.284545530454	50.000000000000	0.0000000000000
718.00000000000	0.90835430389509	29.157266270764	50.000000000000	0.0000000000000
718.40002441406	0.90768400676303	29.029880309859	50.000000000000	0.0000000000000
718.79998779297	0.90700747229011	28.902379869622	50.000000000000	0.0000000000000
719.20001220703	0.90632438924702	28.774772312646	50.000000000000	0.0000000000000
719.59997558594	0.90563518713820	28.647056385297	50.000000000000	0.0000000000000
720.00000000000	0.90493967207392	28.519237479431	50.000000000000	0.0000000000000
720.40002441406	0.90423799213003	28.391313435697	50.000000000000	0.0000000000000
720.79998779297	0.90353020456478	28.263287410565	50.000000000000	0.0000000000000
721.20001220703	0.90281649553649	28.135153910444	50.000000000000	0.0000000000000
721.59997558594	0.90209671136416	28.006923311123	50.000000000000	0.0000000000000
722.00000000000	0.90137120961207	27.878586537849	50.000000000000	0.0000000000000
722.40002441406	0.90063975477202	27.750152428775	50.000000000000	0.0000000000000
722.79998779297	0.89990257135545	27.621612194790	50.000000000000	0.0000000000000
723.20001220703	0.89915975593771	27.492974262449	50.000000000000	0.0000000000000
723.59997558594	0.89841133332982	27.364230197639	50.000000000000	0.0000000000000
724.00000000000	0.89765737178885	27.235385128124	50.000000000000	0.0000000000000
724.40002441406	0.89689800400471	27.106435679095	50.000000000000	0.0000000000000
724.79998779297	0.89613310988980	26.977380356777	50.000000000000	0.0000000000000
725.20001220703	0.89536283656815	26.848226032590	50.000000000000	0.0000000000000
725.59997558594	0.89458742233786	26.718957471667	50.000000000000	0.0000000000000
726.00000000000	0.89380668113720	26.589590288531	50.000000000000	0.0000000000000
726.40002441406	0.89302082530905	26.460105881708	50.000000000000	0.0000000000000
726.79998779297	0.89222982784535	26.330514739489	50.000000000000	0.0000000000000
727.20001220703	0.89143384849931	26.200808596978	50.000000000000	0.0000000000000
727.59997558594	0.89063279337423	26.070989396165	50.000000000000	0.0000000000000
728.00000000000	0.88982692879699	25.941054129658	50.000000000000	0.0000000000000
728.40002441406	0.88901612149793	25.810999590822	50.000000000000	0.0000000000000
728.79998779297	0.88820045126685	25.680824409759	50.000000000000	0.0000000000000
729.20001220703	0.88738009257240	25.550522197240	50.000000000000	0.0000000000000
729.59997558594	0.88655503082255	25.420096730920	50.000000000000	0.0000000000000
730.00000000000	0.88572530754589	25.289541521817	50.000000000000	0.0000000000000
730.40002441406	0.88489081579911	25.158856744533	50.000000000000	0.0000000000000
730.79998779297	0.88405195969540	25.028031297041	50.000000000000	0.0000000000000
731.20001220703	0.88320842930341	24.897073677160	50.000000000000	0.0000000000000
731.59997558594	0.88236050452771	24.765955332374	50.000000000000	0.0000000000000
732.00000000000	0.88150815883150	24.634706022175	50.000000000000	0.0000000000000
732.40002441406	0.88065132621457	24.503322544068	50.000000000000	0.0000000000000
732.79998779297	0.87979025228989	24.371771144605	50.000000000000	0.0000000000000
733.20001220703	0.87892474446080	24.240086471219	50.000000000000	0.0000000000000
733.59997558594	0.87805500077432	24.108208538757	50.000000000000	0.0000000000000
734.00000000000	0.87718100395567	23.976168950519	50.000000000000	0.0000000000000
734.40002441406	0.87630279983304	23.843961241020	50.000000000000	0.0000000000000
734.79998779297	0.87542044435448	23.711619146164	50.000000000000	0.0000000000000
735.20001220703	0.87453387608346	23.579032781973	50.000000000000	0.0000000000000
735.59997558594	0.87364312195230	23.446309130410	50.000000000000	0.0000000000000
736.00000000000	0.87274829422924	23.313392981992	50.000000000000	0.0000000000000
736.40002441406	0.87184943424520	23.180286567172	50.000000000000	0.0000000000000
736.79998779297	0.87094638446182	23.046961472801	50.000000000000	0.0000000000000
737.20001220703	0.87003932539303	22.913471380182	50.000000000000	0.0000000000000
737.59997558594	0.86912820283481	22.779763640530	50.000000000000	0.0000000000000
738.00000000000	0.86821304815178	22.645838594099	50.000000000000	0.0000000000000
738.40002441406	0.86729389244218	22.511696591739	50.000000000000	0.0000000000000
738.79998779297	0.86637068872828	22.377335850571	50.000000000000	0.0000000000000
739.20001220703	0.86544348912577	22.242749727133	50.000000000000	0.0000000000000
739.59997558594	0.86451233525704	22.107929741692	50.000000000000	0.0000000000000
740.00000000000	0.86357711505520	21.972873666011	50.000000000000	0.0000000000000
740.40002441406	0.86263797101612	21.837568142907	50.000000000000	0.0000000000000
740.79998779297	0.86169465937274	21.702020765091	50.000000000000	0.0000000000000
741.20001220703	0.86074746746331	21.566220719052	50.000000000000	0.0000000000000
741.59997558594	0.85979626391904	21.430151231382	50.000000000000	0.0000000000000
742.00000000000	0.85884102634738	21.293824589768	50.000000000000	0.0000000000000
742.40002441406	0.85788174653583	21.157222811109	50.000000000000	0.0000000000000
742.79998779297	0.85691832652599	21.020345122731	50.000000000000	0.0000000000000
743.20001220703	0.85595099174492	20.883180274655	50.000000000000	0.0000000000000
743.59997558594	0.85497947788368	20.745731698482	50.000000000000	0.0000000000000
744.00000000000	0.85400386848231	20.607985317996	50.000000000000	0.0000000000000
744.40002441406	0.85302405675696	20.469938258355	50.000000000000	0.0000000000000
744.79998779297	0.85204015965546	20.331581976188	50.000000000000	0.0000000000000
745.20001220703	0.85105213756502	20.192913987468	50.000000000000	0.0000000000000
745.59997558594	0.85005986433130	20.053927471352	50.000000000000	0.0000000000000
746.00000000000	0.84906332661185	19.914612735821	50.000000000000	0.0000000000000
746.40002441406	0.84806249644545	19.774968958665	50.000000000000	0.0000000000000
746.79998779297	0.84705742796086	19.634986872048	50.000000000000	0.0000000000000
747.20001220703	0.84604788547757	19.494662014754	50.000000000000	0.0000000000000
747.59997558594	0.84503404710522	19.353984166553	50.000000000000	0.0000000000000
748.00000000000	0.84401575444877	19.212951146951	50.000000000000	0.0000000000000
748.40002441406	0.84299301815753	19.071556667895	50.000000000000	0.0000000000000
748.79998779297	0.84196571741607	18.929793192649	50.000000000000	0.0000000000000
749.20001220703	0.84093380785080	18.787655582068	50.000000000000	0.0000000000000
749.59997558594	0.83989736802927	18.645137946542	50.000000000000	0.0000000000000
750.00000000000	0.83885625076816	18.502226692564	50.000000000000	0.0000000000000
750.40002441406	0.83781034787970	18.358928663612	50.000000000000	0.0000000000000
750.79998779297	0.83675958858043	18.215232580711	50.000000000000	0.0000000000000
751.20001220703	0.83570414858240	18.071125850194	50.000000000000	0.0000000000000
751.59997558594	0.83464364719776	17.926610452370	50.000000000000	0.0000000000000
752.00000000000	0.83357827981425	17.781677526937	50.000000000000	0.0000000000000
752.40002441406	0.83250788391928	17.636321826353	50.000000000000	0.0000000000000
752.79998779297	0.83143234982521	17.490535722020	50.000000000000	0.0000000000000
753.20001220703	0.83035158196972	17.344314385799	50.000000000000	0.0000000000000
753.59997558594	0.82926567361053	17.197653149927	50.000000000000	0.0000000000000
754.00000000000	0.82817438973429	17.050543549229	50.000000000000	0.0000000000000
754.40002441406	0.82707775902327	16.902979976468	50.000000000000	0.0000000000000
754.79998779297	0.82597569648807	16.754959168654	50.000000000000	0.0000000000000
755.20001220703	0.82486809597289	16.606472794053	50.000000000000	0.0000000000000
755.59997558594	0.82375486486653	16.457515349854	50.000000000000	0.0000000000000
756.00000000000	0.82263585798560	16.308083365511	50.000000000000	0.0000000000000
756.40002441406	0.82151115928643	16.158168584814	50.000000000000	0.0000000000000
756.79998779297	0.82038057943349	16.007771474540	50.000000000000	0.0000000000000
757.20001220703	0.81924410911673	15.856875744103	50.000000000000	0.0000000000000
757.59997558594	0.81810157206795	15.705484559566	50.000000000000	0.0000000000000
758.00000000000	0.81695293542809	15.553590526632	50.000000000000	0.0000000000000
758.40002441406	0.81579805210837	15.401188371018	50.000000000000	0.0000000000000
758.79998779297	0.81463694791349	15.248269332349	50.000000000000	0.0000000000000
759.20001220703	0.81346938120423	15.094835113512	50.000000000000	0.0000000000000
759.59997558594	0.81229542828595	14.940873591749	50.000000000000	0.0000000000000
760.00000000000	0.81111478625949	14.786386219606	50.000000000000	0.0000000000000
760.40002441406	0.80992753642895	14.631361629194	50.000000000000	0.0000000000000
760.79998779297	0.80873361429925	14.475798727410	50.000000000000	0.0000000000000
761.20001220703	0.80753275600628	14.319692288261	50.000000000000	0.0000000000000
761.59997558594	0.80632494740707	14.163037793456	50.000000000000	0.0000000000000
762.00000000000	0.80511005167112	14.005830636126	50.000000000000	0.0000000000000
762.40002441406	0.80388799360754	13.848066042159	50.000000000000	0.0000000000000
762.79998779297	0.80265869824049	13.689739101555	50.000000000000	0.0000000000000
763.20001220703	0.80142209082202	13.530844766360	50.000000000000	0.0000000000000
763.59997558594	0.80017804574859	13.371380911661	50.000000000000	0.0000000000000
764.00000000000	0.79892636213901	13.211341023616	50.000000000000	0.0000000000000
764.40002441406	0.79766703394919	13.050721690381	50.000000000000	0.0000000000000
764.79998779297	0.79639993223081	12.889519244027	50.000000000000	0.0000000000000
765.20001220703	0.79512498944349	12.727729936202	50.000000000000	0.0000000000000
765.59997558594	0.79384207337037	12.565348721388	50.000000000000	0.0000000000000
766.00000000000	0.79255100336212	12.402374439331	50.000000000000	0.0000000000000
766.40002441406	0.79125176359739	12.238799808238	50.000000000000	0.0000000000000
766.79998779297	0.78994428982432	12.074621502807	50.000000000000	0.0000000000000
767.20001220703	0.78862829052617	11.909841756924	50.000000000000	0.0000000000000
767.59997558594	0.78730380207632	11.744449785799	50.000000000000	0.0000000000000
768.00000000000	0.78597077200599	11.578446023755	50.000000000000	0.0000000000000
768.40002441406	0.78462895410985	11.411826985905	50.000000000000	0.0000000000000
768.79998779297	0.78327828322549	11.244588478913	50.000000000000	0.0000000000000
769.20001220703	0.78191869699323	11.076727232463	50.000000000000	0.0000000000000
769.59997558594	0.78055001859810	10.908242565055	50.000000000000	0.0000000000000
770.00000000000	0.77917218492385	10.739130861661	50.000000000000	0.0000000000000
770.40002441406	0.77778507133331	10.569388086450	50.000000000000	0.0000000000000
770.79998779297	0.77638855843110	10.399012161271	50.000000000000	0.0000000000000
771.20001220703	0.77498252899785	10.228001903299	50.000000000000	0.0000000000000
771.59997558594	0.77356691606567	10.056351916577	50.000000000000	0.0000000000000
772.00000000000	0.77214160421331	9.8840617518457	50.000000000000	0.0000000000000
772.40002441406	0.77070647221072	9.7111285976997	50.000000000000	0.0000000000000
772.79998779297	0.76926140829005	9.5375538181659	50.000000000000	0.0000000000000
773.20001220703	0.76780627775123	9.3633287385252	50.000000000000	0.0000000000000
773.59997558594	0.76634103141947	9.1884558073010	50.000000000000	0.0000000000000
774.00000000000	0.76486548821343	9.0129327063842	50.000000000000	0.0000000000000
774.40002441406	0.76337964661646	8.8367564526764	50.000000000000	0.0000000000000
774.79998779297	0.76188327230077	8.6599283225357	50.000000000000	0.0000000000000
775.20001220703	0.76037641572437	8.4824415512165	50.000000000000	0.0000000000000
775.59997558594	0.75885866745495	8.3043006113639	50.000000000000	0.0000000000000
776.00000000000	0.75733031806976	8.1254985488056	50.000000000000	0.0000000000000
776.40002441406	0.75579107306608	7.9460375909779	50.000000000000	0.0000000000000
776.79998779297	0.75424074961082	7.7659155936960	50.000000000000	0.0000000000000
777.20001220703	0.75267940638469	7.5851311145807	50.000000000000	0.0000000000000
777.59997558594	0.75110686285235	7.4036838885520	50.000000000000	0.0000000000000
778.00000000000	0.74952293741206	7.2215733891057	50.000000000000	0.0000000000000
778.40002441406	0.74792768403635	7.0387965847515	50.000000000000	0.0000000000000
778.79998779297	0.74632086281472	6.8553548196663	50.000000000000	0.0000000000000
779.20001220703	0.74470247011079	6.6712475644723	50.000000000000	0.0000000000000
779.59997558594	0.74307243942432	6.4864730007793	50.000000000000	0.0000000000000
780.00000000000	0.74143052560863	6.3010306564467	50.000000000000	0.0000000000000
780.40002441406	0.73977672498052	6.1149217692836	50.000000000000	0.0000000000000
780.79998779297	0.73811084990466	5.9281454765410	50.000000000000	0.0000000000000
781.20001220703	0.73643306968097	5.7406995737820	50.000000000000	0.0000000000000
781.59997558594	0.73474302018327	5.5525871226965	50.000000000000	0.0000000000000
782.00000000000	0.73304068943151	5.3638063950823	50.000000000000	0.0000000000000
782.40002441406	0.73132600636542	5.1743571256294	50.000000000000	0.0000000000000
782.79998779297	0.72959895992036	4.9842402216384	50.000000000000	0.0000000000000
783.20001220703	0.72785911922167	4.7934569009119	50.000000000000	0.0000000000000
783.59997558594	0.72610688595427	4.6020049062011	50.000000000000	0.0000000000000
784.00000000000	0.72434182815644	4.4098867765856	50.000000000000	0.0000000000000
784.40002441406	0.72256398754643	4.2171017407830	50.000000000000	0.0000000000000
784.79998779297	0.72077328739854	4.0236517015065	50.000000000000	0.0000000000000
785.20001220703	0.71896958745084	3.8295360531386	50.000000000000	0.0000000000000
785.59997558594	0.71715286759130	3.6347565990496	50.000000000000	0.0000000000000
786.00000000000	0.71532292534623	3.4393132206346	50.000000000000	0.0000000000000
786.40002441406	0.71347985635192	3.2432071114368	50.000000000000	0.0000000000000
786.79998779297	0.71162339672189	3.0464401168756	50.000000000000	0.0000000000000
787.20001220703	0.70975369736685	2.8490120366865	50.000000000000	0.0000000000000
787.59997558594	0.70787055068255	2.6509246800790	50.000000000000	0.0000000000000
788.00000000000	0.70597386612798	2.4521789791284	50.000000000000	0.0000000000000
788.40002441406	0.70406355154056	2.2527761291698	50.000000000000	0.0000000000000
788.79998779297	0.70213963238055	2.0527176975023	50.000000000000	0.0000000000000
789.20001220703	0.70020201265919	1.8520047521576	50.000000000000	0.0000000000000
789.59997558594	0.69825059483568	1.6506392328819	50.000000000000	0.0000000000000
790.00000000000	0.69628527912608	1.4486224291298	50.000000000000	0.0000000000000
790.40002441406	0.69430608311575	1.2459559835225	50.000000000000	0.0000000000000
790.79998779297	0.69231290304666	1.0426414267746	50.000000000000	0.0000000000000
791.20001220703	0.69030569275788	0.83868055402262	50.000000000000	0.0000000000000
791.59997558594	0.68828434433918	0.63407523689018	50.000000000000	0.0000000000000
792.00000000000	0.68624886690600	0.42882729932707	50.000000000000	0.0000000000000
792.40002441406	0.68419920775436	0.22293865425021	50.000000000000	0.0000000000000
792.79998779297	0.68213525232413	0.016411189691288	50.000000000000	0.0000000000000
793.20001220703	0.68005700298048	-0.19075298154334	50.000000000000	0.0000000000000
793.59997558594	0.67796440014871	-0.39855183489149	50.000000000000	0.0000000000000
794.00000000000	0.67585738187505	-0.60698314260253	50.000000000000	0.0000000000000
794.40002441406	0.67373588380767	-0.81604478864178	50.000000000000	0.0000000000000
794.79998779297	0.67159983915848	-1.0257346103961	50.000000000000	0.0000000000000
795.20001220703	0.66944941706771	-1.2360501197887	50.000000000000	0.0000000000000
795.59997558594	0.66728424764848	-1.4469890045841	50.000000000000	0.0000000000000
796.00000000000	0.66510449503314	-1.6585489539661	50.000000000000	0.0000000000000
796.40002441406	0.66291014189403	-1.8707274559023	50.000000000000	0.0000000000000
