#Parameters = {B=44; D_M=5.208; Feed=26.3; Feed_real=-4.3; Groudmax=0; LPiste=4.459; Largeur=29; TermA=89; Zmax=0.09; Zmin=0}
#"Frequency / MHz"	"S1,1 [Mag]"	"S1,1 [Pha / deg]"	"Ref.Imp. [Mag]"	"Ref.Imp. [Pha / deg]"
#-----------------------------------------------------------------------------------------
700.00000000000	0.95273009840792	53.887581874965	50.000000000000	0.0000000000000
700.40002441406	0.95278818923437	53.773692849026	50.000000000000	0.0000000000000
700.79998779297	0.95283435032521	53.659008231406	50.000000000000	0.0000000000000
701.20001220703	0.95286817858821	53.543568754766	50.000000000000	0.0000000000000
701.59997558594	0.95288965636772	53.427383211103	50.000000000000	0.0000000000000
702.00000000000	0.95289846792294	53.310478282028	50.000000000000	0.0000000000000
702.40002441406	0.95289452031862	53.192868216666	50.000000000000	0.0000000000000
702.79998779297	0.95287763532628	53.074567855352	50.000000000000	0.0000000000000
703.20001220703	0.95284763185421	52.955609796956	50.000000000000	0.0000000000000
703.59997558594	0.95280445688297	52.836010034180	50.000000000000	0.0000000000000
704.00000000000	0.95274775715751	52.715784335644	50.000000000000	0.0000000000000
704.40002441406	0.95267772587131	52.594946382493	50.000000000000	0.0000000000000
704.79998779297	0.95259412197073	52.473526083594	50.000000000000	0.0000000000000
705.20001220703	0.95249676213096	52.351542462004	50.000000000000	0.0000000000000
705.59997558594	0.95238562745993	52.229013113465	50.000000000000	0.0000000000000
706.00000000000	0.95226068598392	52.105950536171	50.000000000000	0.0000000000000
706.40002441406	0.95212185084471	51.982382878087	50.000000000000	0.0000000000000
706.79998779297	0.95196897400453	51.858330946066	50.000000000000	0.0000000000000
707.20001220703	0.95180218237050	51.733805784457	50.000000000000	0.0000000000000
707.59997558594	0.95162123875378	51.608828647047	50.000000000000	0.0000000000000
708.00000000000	0.95142620052053	51.483421140858	50.000000000000	0.0000000000000
708.40002441406	0.95121712159948	51.357604869161	50.000000000000	0.0000000000000
708.79998779297	0.95099389473727	51.231384590631	50.000000000000	0.0000000000000
709.20001220703	0.95075654926352	51.104794729744	50.000000000000	0.0000000000000
709.59997558594	0.95050505643820	50.977839394156	50.000000000000	0.0000000000000
710.00000000000	0.95023946715126	50.850545130861	50.000000000000	0.0000000000000
710.40002441406	0.94995977345777	50.722931167708	50.000000000000	0.0000000000000
710.79998779297	0.94966612374901	50.595010659139	50.000000000000	0.0000000000000
711.20001220703	0.94935837439641	50.466801047710	50.000000000000	0.0000000000000
711.59997558594	0.94903671449128	50.338317792259	50.000000000000	0.0000000000000
712.00000000000	0.94870116251404	50.209577366744	50.000000000000	0.0000000000000
712.40002441406	0.94835182549587	50.080600869410	50.000000000000	0.0000000000000
712.79998779297	0.94798862437932	49.951400187546	50.000000000000	0.0000000000000
713.20001220703	0.94761174405443	49.821996029109	50.000000000000	0.0000000000000
713.59997558594	0.94722122261192	49.692397133014	50.000000000000	0.0000000000000
714.00000000000	0.94681727785352	49.562621609000	50.000000000000	0.0000000000000
714.40002441406	0.94639978173591	49.432684186091	50.000000000000	0.0000000000000
714.79998779297	0.94596903016723	49.302602706063	50.000000000000	0.0000000000000
715.20001220703	0.94552514164827	49.172390838105	50.000000000000	0.0000000000000
715.59997558594	0.94506810308245	49.042060319113	50.000000000000	0.0000000000000
716.00000000000	0.94459802243595	48.911619814525	50.000000000000	0.0000000000000
716.40002441406	0.94411519082120	48.781092693318	50.000000000000	0.0000000000000
716.79998779297	0.94361963228895	48.650493285153	50.000000000000	0.0000000000000
717.20001220703	0.94311147638984	48.519817594035	50.000000000000	0.0000000000000
717.59997558594	0.94259088273749	48.389092369473	50.000000000000	0.0000000000000
718.00000000000	0.94205803180348	48.258326442519	50.000000000000	0.0000000000000
718.40002441406	0.94151302273807	48.127534162734	50.000000000000	0.0000000000000
718.79998779297	0.94095602748409	47.996719445898	50.000000000000	0.0000000000000
719.20001220703	0.94038726961364	47.865899006668	50.000000000000	0.0000000000000
719.59997558594	0.93980679736700	47.735085081731	50.000000000000	0.0000000000000
720.00000000000	0.93921485769706	47.604276539865	50.000000000000	0.0000000000000
720.40002441406	0.93861159101886	47.473500994158	50.000000000000	0.0000000000000
720.79998779297	0.93799723372583	47.342747309933	50.000000000000	0.0000000000000
721.20001220703	0.93737188106977	47.212046045733	50.000000000000	0.0000000000000
721.59997558594	0.93673577042125	47.081391458220	50.000000000000	0.0000000000000
722.00000000000	0.93608906401716	46.950793572689	50.000000000000	0.0000000000000
722.40002441406	0.93543192225475	46.820262539522	50.000000000000	0.0000000000000
722.79998779297	0.93476462882734	46.689805824191	50.000000000000	0.0000000000000
723.20001220703	0.93408716992530	46.559428988747	50.000000000000	0.0000000000000
723.59997558594	0.93339999722610	46.429144662116	50.000000000000	0.0000000000000
724.00000000000	0.93270309003837	46.298948299411	50.000000000000	0.0000000000000
724.40002441406	0.93199677031695	46.168850461181	50.000000000000	0.0000000000000
724.79998779297	0.93128127388344	46.038862024323	50.000000000000	0.0000000000000
725.20001220703	0.93055666210106	45.908978638539	50.000000000000	0.0000000000000
725.59997558594	0.92982321143840	45.779213987328	50.000000000000	0.0000000000000
726.00000000000	0.92908119322387	45.649566369562	50.000000000000	0.0000000000000
726.40002441406	0.92833062744840	45.520044788846	50.000000000000	0.0000000000000
726.79998779297	0.92757178427548	45.390647781630	50.000000000000	0.0000000000000
727.20001220703	0.92680489228159	45.261381871647	50.000000000000	0.0000000000000
727.59997558594	0.92603017848041	45.132243313625	50.000000000000	0.0000000000000
728.00000000000	0.92524791237908	45.003241538774	50.000000000000	0.0000000000000
728.40002441406	0.92445806734415	44.874373072345	50.000000000000	0.0000000000000
728.79998779297	0.92366103777457	44.745644999456	50.000000000000	0.0000000000000
729.20001220703	0.92285696510172	44.617054091004	50.000000000000	0.0000000000000
729.59997558594	0.92204603281871	44.488599840657	50.000000000000	0.0000000000000
730.00000000000	0.92122850860922	44.360281913721	50.000000000000	0.0000000000000
730.40002441406	0.92040448920792	44.232110488978	50.000000000000	0.0000000000000
730.79998779297	0.91957416060647	44.104069672928	50.000000000000	0.0000000000000
731.20001220703	0.91873787045176	43.976175354753	50.000000000000	0.0000000000000
731.59997558594	0.91789567831658	43.848414383435	50.000000000000	0.0000000000000
732.00000000000	0.91704768860131	43.720771031162	50.000000000000	0.0000000000000
732.40002441406	0.91619436322380	43.593290766985	50.000000000000	0.0000000000000
732.79998779297	0.91533565153054	43.465921001054	50.000000000000	0.0000000000000
733.20001220703	0.91447182283137	43.338662334051	50.000000000000	0.0000000000000
733.59997558594	0.91360300800288	43.211539058124	50.000000000000	0.0000000000000
734.00000000000	0.91272944678841	43.084522932242	50.000000000000	0.0000000000000
734.40002441406	0.91185134976919	42.957643976205	50.000000000000	0.0000000000000
734.79998779297	0.91096870239145	42.830878871075	50.000000000000	0.0000000000000
735.20001220703	0.91008188075409	42.704191909773	50.000000000000	0.0000000000000
735.59997558594	0.90919094908103	42.577642322165	50.000000000000	0.0000000000000
736.00000000000	0.90829610463298	42.451148963069	50.000000000000	0.0000000000000
736.40002441406	0.90739741745401	42.324760622897	50.000000000000	0.0000000000000
736.79998779297	0.90649517260871	42.198457671941	50.000000000000	0.0000000000000
737.20001220703	0.90558943659117	42.072233203754	50.000000000000	0.0000000000000
737.59997558594	0.90468041426030	41.946067427435	50.000000000000	0.0000000000000
738.00000000000	0.90376815182209	41.819980166304	50.000000000000	0.0000000000000
738.40002441406	0.90285285533012	41.693951764533	50.000000000000	0.0000000000000
738.79998779297	0.90193468970943	41.567919525880	50.000000000000	0.0000000000000
739.20001220703	0.90101369530047	41.441999985037	50.000000000000	0.0000000000000
739.59997558594	0.90009008976570	41.316077077893	50.000000000000	0.0000000000000
740.00000000000	0.89916393866577	41.190154801475	50.000000000000	0.0000000000000
740.40002441406	0.89823532292266	41.064261531664	50.000000000000	0.0000000000000
740.79998779297	0.89730443935806	40.938393977563	50.000000000000	0.0000000000000
741.20001220703	0.89637132731208	40.812502289394	50.000000000000	0.0000000000000
741.59997558594	0.89543606623879	40.686579868032	50.000000000000	0.0000000000000
742.00000000000	0.89449884615236	40.560634217612	50.000000000000	0.0000000000000
742.40002441406	0.89355970801483	40.434655958167	50.000000000000	0.0000000000000
742.79998779297	0.89261875731593	40.308652315130	50.000000000000	0.0000000000000
743.20001220703	0.89167596988304	40.182567399516	50.000000000000	0.0000000000000
743.59997558594	0.89073151772095	40.056425037607	50.000000000000	0.0000000000000
744.00000000000	0.88978546857737	39.930199634222	50.000000000000	0.0000000000000
744.40002441406	0.88883795465733	39.803882250226	50.000000000000	0.0000000000000
744.79998779297	0.88788885749941	39.677462469164	50.000000000000	0.0000000000000
745.20001220703	0.88693828176083	39.550922923080	50.000000000000	0.0000000000000
745.59997558594	0.88598635584340	39.424260056192	50.000000000000	0.0000000000000
746.00000000000	0.88503301977695	39.297455438212	50.000000000000	0.0000000000000
746.40002441406	0.88407845046213	39.170503056848	50.000000000000	0.0000000000000
746.79998779297	0.88312255394595	39.043381388104	50.000000000000	0.0000000000000
747.20001220703	0.88216541739763	38.916089262090	50.000000000000	0.0000000000000
747.59997558594	0.88120699691680	38.788602570127	50.000000000000	0.0000000000000
748.00000000000	0.88024730765479	38.660914034703	50.000000000000	0.0000000000000
748.40002441406	0.87928646839038	38.533006053713	50.000000000000	0.0000000000000
748.79998779297	0.87832431994848	38.404875504777	50.000000000000	0.0000000000000
749.20001220703	0.87736099408616	38.276499218938	50.000000000000	0.0000000000000
749.59997558594	0.87639641801225	38.147874567814	50.000000000000	0.0000000000000
750.00000000000	0.87543057040340	38.018971481924	50.000000000000	0.0000000000000
750.40002441406	0.87446341839335	37.889790224423	50.000000000000	0.0000000000000
750.79998779297	0.87349487720076	37.760313880129	50.000000000000	0.0000000000000
751.20001220703	0.87252516225084	37.630525140458	50.000000000000	0.0000000000000
751.59997558594	0.87155387321534	37.500418158789	50.000000000000	0.0000000000000
752.00000000000	0.87058128742504	37.369967594370	50.000000000000	0.0000000000000
752.40002441406	0.86960713892423	37.239165661665	50.000000000000	0.0000000000000
752.79998779297	0.86863146073356	37.108004287116	50.000000000000	0.0000000000000
753.20001220703	0.86765414345365	36.976462791459	50.000000000000	0.0000000000000
753.59997558594	0.86667515191621	36.844526630343	50.000000000000	0.0000000000000
754.00000000000	0.86569444069530	36.712186679565	50.000000000000	0.0000000000000
754.40002441406	0.86471184659706	36.579429742202	50.000000000000	0.0000000000000
754.79998779297	0.86372737485117	36.446244109410	50.000000000000	0.0000000000000
755.20001220703	0.86274090372965	36.312599713828	50.000000000000	0.0000000000000
755.59997558594	0.86175228614749	36.178497148150	50.000000000000	0.0000000000000
756.00000000000	0.86076149742563	36.043921143597	50.000000000000	0.0000000000000
756.40002441406	0.85976837006451	35.908863315759	50.000000000000	0.0000000000000
756.79998779297	0.85877281299556	35.773301689137	50.000000000000	0.0000000000000
757.20001220703	0.85777469333075	35.637223600896	50.000000000000	0.0000000000000
757.59997558594	0.85677392835840	35.500613907643	50.000000000000	0.0000000000000
758.00000000000	0.85577047500942	35.363467764394	50.000000000000	0.0000000000000
758.40002441406	0.85476396989876	35.225763645793	50.000000000000	0.0000000000000
758.79998779297	0.85375445586655	35.087497315278	50.000000000000	0.0000000000000
759.20001220703	0.85274169068673	34.948651050214	50.000000000000	0.0000000000000
759.59997558594	0.85172561746970	34.809210509696	50.000000000000	0.0000000000000
760.00000000000	0.85070598330739	34.669163114950	50.000000000000	0.0000000000000
760.40002441406	0.84968281783060	34.528495193483	50.000000000000	0.0000000000000
760.79998779297	0.84865574083739	34.387202260897	50.000000000000	0.0000000000000
761.20001220703	0.84762468500183	34.245267583975	50.000000000000	0.0000000000000
761.59997558594	0.84658958526038	34.102674266378	50.000000000000	0.0000000000000
762.00000000000	0.84555006556836	33.959417109051	50.000000000000	0.0000000000000
762.40002441406	0.84450614686237	33.815479877832	50.000000000000	0.0000000000000
762.79998779297	0.84345742242392	33.670853520349	50.000000000000	0.0000000000000
763.20001220703	0.84240393325734	33.525523081005	50.000000000000	0.0000000000000
763.59997558594	0.84134542373912	33.379486911428	50.000000000000	0.0000000000000
764.00000000000	0.84028167350515	33.232724549247	50.000000000000	0.0000000000000
764.40002441406	0.83921246276874	33.085229896544	50.000000000000	0.0000000000000
764.79998779297	0.83813759003513	32.936990982387	50.000000000000	0.0000000000000
765.20001220703	0.83705700400278	32.787996303749	50.000000000000	0.0000000000000
765.59997558594	0.83597039176246	32.638228775359	50.000000000000	0.0000000000000
766.00000000000	0.83487743373222	32.487700431086	50.000000000000	0.0000000000000
766.40002441406	0.83377813899439	32.336374751233	50.000000000000	0.0000000000000
766.79998779297	0.83267212296927	32.184263745416	50.000000000000	0.0000000000000
767.20001220703	0.83155932723336	32.031345609568	50.000000000000	0.0000000000000
767.59997558594	0.83043930724023	31.877617433476	50.000000000000	0.0000000000000
768.00000000000	0.82931205550496	31.723062071612	50.000000000000	0.0000000000000
768.40002441406	0.82817737535238	31.567680027935	50.000000000000	0.0000000000000
768.79998779297	0.82703487473039	31.411465318618	50.000000000000	0.0000000000000
769.20001220703	0.82588433504424	31.254399436495	50.000000000000	0.0000000000000
769.59997558594	0.82472566336876	31.096477708158	50.000000000000	0.0000000000000
770.00000000000	0.82355856776366	30.937696340525	50.000000000000	0.0000000000000
770.40002441406	0.82238280767239	30.778049083780	50.000000000000	0.0000000000000
770.79998779297	0.82119814884459	30.617521891683	50.000000000000	0.0000000000000
771.20001220703	0.82000434669512	30.456115355679	50.000000000000	0.0000000000000
771.59997558594	0.81880116877844	30.293814772988	50.000000000000	0.0000000000000
772.00000000000	0.81758842272883	30.130618009111	50.000000000000	0.0000000000000
772.40002441406	0.81636588621689	29.966519040620	50.000000000000	0.0000000000000
772.79998779297	0.81513324870577	29.801517510605	50.000000000000	0.0000000000000
773.20001220703	0.81389022906376	29.635599437317	50.000000000000	0.0000000000000
773.59997558594	0.81263671703782	29.468762985408	50.000000000000	0.0000000000000
774.00000000000	0.81137241056760	29.300999216620	50.000000000000	0.0000000000000
774.40002441406	0.81009700585252	29.132315767981	50.000000000000	0.0000000000000
774.79998779297	0.80881049887282	28.962688822274	50.000000000000	0.0000000000000
775.20001220703	0.80751231028746	28.792133742989	50.000000000000	0.0000000000000
775.59997558594	0.80620246623614	28.620629707242	50.000000000000	0.0000000000000
776.00000000000	0.80488059490420	28.448183174511	50.000000000000	0.0000000000000
776.40002441406	0.80354650431596	28.274788405958	50.000000000000	0.0000000000000
776.79998779297	0.80219991150806	28.100445219113	50.000000000000	0.0000000000000
777.20001220703	0.80084061008857	27.925145291463	50.000000000000	0.0000000000000
777.59997558594	0.79946831643567	27.748887688225	50.000000000000	0.0000000000000
778.00000000000	0.79808286561280	27.571669016833	50.000000000000	0.0000000000000
778.40002441406	0.79668398644704	27.393489520600	50.000000000000	0.0000000000000
778.79998779297	0.79527144608926	27.214345187384	50.000000000000	0.0000000000000
779.20001220703	0.79384498533853	27.034237410288	50.000000000000	0.0000000000000
779.59997558594	0.79240436991615	26.853161419030	50.000000000000	0.0000000000000
780.00000000000	0.79094941876230	26.671119762367	50.000000000000	0.0000000000000
780.40002441406	0.78947976275163	26.488106933897	50.000000000000	0.0000000000000
780.79998779297	0.78799533870853	26.304122805857	50.000000000000	0.0000000000000
781.20001220703	0.78649578839585	26.119172693916	50.000000000000	0.0000000000000
781.59997558594	0.78498095272735	25.933251892294	50.000000000000	0.0000000000000
782.00000000000	0.78345061843489	25.746357241731	50.000000000000	0.0000000000000
782.40002441406	0.78190452819036	25.558498811415	50.000000000000	0.0000000000000
782.79998779297	0.78034243977308	25.369668747731	50.000000000000	0.0000000000000
783.20001220703	0.77876410769763	25.179868536155	50.000000000000	0.0000000000000
783.59997558594	0.77716932247629	24.989105239713	50.000000000000	0.0000000000000
784.00000000000	0.77555797161819	24.797370068843	50.000000000000	0.0000000000000
784.40002441406	0.77392974612082	24.604675099750	50.000000000000	0.0000000000000
784.79998779297	0.77228439243119	24.411020319033	50.000000000000	0.0000000000000
785.20001220703	0.77062175180655	24.216399626631	50.000000000000	0.0000000000000
785.59997558594	0.76894170749612	24.020824565996	50.000000000000	0.0000000000000
786.00000000000	0.76724385488361	23.824291518261	50.000000000000	0.0000000000000
786.40002441406	0.76552811413394	23.626807477004	50.000000000000	0.0000000000000
786.79998779297	0.76379428829350	23.428370754974	50.000000000000	0.0000000000000
787.20001220703	0.76204221406147	23.228985438661	50.000000000000	0.0000000000000
787.59997558594	0.76027157249958	23.028662634763	50.000000000000	0.0000000000000
788.00000000000	0.75848213602153	22.827395340945	50.000000000000	0.0000000000000
788.40002441406	0.75667395597793	22.625191680490	50.000000000000	0.0000000000000
788.79998779297	0.75484661480381	22.422057163343	50.000000000000	0.0000000000000
789.20001220703	0.75300000145093	22.217994436661	50.000000000000	0.0000000000000
789.59997558594	0.75113401331718	22.013007970763	50.000000000000	0.0000000000000
790.00000000000	0.74924841186654	21.807101132672	50.000000000000	0.0000000000000
790.40002441406	0.74734285575025	21.600282358333	50.000000000000	0.0000000000000
790.79998779297	0.74541747625822	21.392552628538	50.000000000000	0.0000000000000
791.20001220703	0.74347191436577	21.183917602555	50.000000000000	0.0000000000000
791.59997558594	0.74150607281708	20.974384408899	50.000000000000	0.0000000000000
792.00000000000	0.73951966215025	20.763960542279	50.000000000000	0.0000000000000
792.40002441406	0.73751262262443	20.552648720172	50.000000000000	0.0000000000000
792.79998779297	0.73548484582965	20.340455219171	50.000000000000	0.0000000000000
793.20001220703	0.73343616353065	20.127387669358	50.000000000000	0.0000000000000
793.59997558594	0.73136639317807	19.913451202773	50.000000000000	0.0000000000000
794.00000000000	0.72927534346490	19.698649501175	50.000000000000	0.0000000000000
794.40002441406	0.72716294037673	19.482998693252	50.000000000000	0.0000000000000
794.79998779297	0.72502901544394	19.266494806977	50.000000000000	0.0000000000000
795.20001220703	0.72287352249701	19.049147519185	50.000000000000	0.0000000000000
795.59997558594	0.72069611886646	18.830971781097	50.000000000000	0.0000000000000
796.00000000000	0.71849688890677	18.611965478953	50.000000000000	0.0000000000000
796.40002441406	0.71627567384621	18.392144089980	50.000000000000	0.0000000000000
796.79998779297	0.71403230508015	18.171506640703	50.000000000000	0.0000000000000
